Freq.	V(Vo)/V(Vi)
1.00000000000000e+002	(-2.35878500909155e+001dB,-9.00004569305278e+001°)
1.00230523807790e+002	(-2.35678500701517e+001dB,-9.00004579838615e+001°)
1.00461579027840e+002	(-2.35478500492921e+001dB,-9.00004590396234e+001°)
1.00693166885180e+002	(-2.35278500283362e+001dB,-9.00004600978190e+001°)
1.00925288607668e+002	(-2.35078500072836e+001dB,-9.00004611584540e+001°)
1.01157945425990e+002	(-2.34878499861338e+001dB,-9.00004622215341e+001°)
1.01391138573668e+002	(-2.34678499648863e+001dB,-9.00004632870648e+001°)
1.01624869287070e+002	(-2.34478499435408e+001dB,-9.00004643550518e+001°)
1.01859138805412e+002	(-2.34278499220968e+001dB,-9.00004654255008e+001°)
1.02093948370768e+002	(-2.34078499005538e+001dB,-9.00004664984174e+001°)
1.02329299228075e+002	(-2.33878498789114e+001dB,-9.00004675738073e+001°)
1.02565192625141e+002	(-2.33678498571690e+001dB,-9.00004686516763e+001°)
1.02801629812647e+002	(-2.33478498353263e+001dB,-9.00004697320300e+001°)
1.03038612044162e+002	(-2.33278498133828e+001dB,-9.00004708148742e+001°)
1.03276140576140e+002	(-2.33078497913380e+001dB,-9.00004719002146e+001°)
1.03514216667934e+002	(-2.32878497691915e+001dB,-9.00004729880570e+001°)
1.03752841581801e+002	(-2.32678497469427e+001dB,-9.00004740784071e+001°)
1.03992016582906e+002	(-2.32478497245912e+001dB,-9.00004751712707e+001°)
1.04231742939330e+002	(-2.32278497021365e+001dB,-9.00004762666537e+001°)
1.04472021922080e+002	(-2.32078496795782e+001dB,-9.00004773645617e+001°)
1.04712854805090e+002	(-2.31878496569158e+001dB,-9.00004784650007e+001°)
1.04954242865232e+002	(-2.31678496341488e+001dB,-9.00004795679765e+001°)
1.05196187382322e+002	(-2.31478496112767e+001dB,-9.00004806734949e+001°)
1.05438689639126e+002	(-2.31278495882990e+001dB,-9.00004817815618e+001°)
1.05681750921366e+002	(-2.31078495652152e+001dB,-9.00004828921830e+001°)
1.05925372517729e+002	(-2.30878495420249e+001dB,-9.00004840053645e+001°)
1.06169555719872e+002	(-2.30678495187276e+001dB,-9.00004851211121e+001°)
1.06414301822431e+002	(-2.30478494953227e+001dB,-9.00004862394318e+001°)
1.06659612123026e+002	(-2.30278494718098e+001dB,-9.00004873603295e+001°)
1.06905487922266e+002	(-2.30078494481884e+001dB,-9.00004884838111e+001°)
1.07151930523760e+002	(-2.29878494244579e+001dB,-9.00004896098826e+001°)
1.07398941234124e+002	(-2.29678494006179e+001dB,-9.00004907385500e+001°)
1.07646521362983e+002	(-2.29478493766679e+001dB,-9.00004918698192e+001°)
1.07894672222983e+002	(-2.29278493526073e+001dB,-9.00004930036963e+001°)
1.08143395129794e+002	(-2.29078493284356e+001dB,-9.00004941401872e+001°)
1.08392691402120e+002	(-2.28878493041524e+001dB,-9.00004952792980e+001°)
1.08642562361706e+002	(-2.28678492797571e+001dB,-9.00004964210348e+001°)
1.08893009333343e+002	(-2.28478492552492e+001dB,-9.00004975654035e+001°)
1.09144033644875e+002	(-2.28278492306281e+001dB,-9.00004987124102e+001°)
1.09395636627209e+002	(-2.28078492058935e+001dB,-9.00004998620611e+001°)
1.09647819614318e+002	(-2.27878491810446e+001dB,-9.00005010143622e+001°)
1.09900583943252e+002	(-2.27678491560811e+001dB,-9.00005021693196e+001°)
1.10153930954141e+002	(-2.27478491310023e+001dB,-9.00005033269395e+001°)
1.10407861990207e+002	(-2.27278491058078e+001dB,-9.00005044872279e+001°)
1.10662378397766e+002	(-2.27078490804969e+001dB,-9.00005056501911e+001°)
1.10917481526240e+002	(-2.26878490550693e+001dB,-9.00005068158352e+001°)
1.11173172728159e+002	(-2.26678490295243e+001dB,-9.00005079841664e+001°)
1.11429453359173e+002	(-2.26478490038613e+001dB,-9.00005091551909e+001°)
1.11686324778056e+002	(-2.26278489780799e+001dB,-9.00005103289149e+001°)
1.11943788346715e+002	(-2.26078489521795e+001dB,-9.00005115053446e+001°)
1.12201845430196e+002	(-2.25878489261596e+001dB,-9.00005126844862e+001°)
1.12460497396692e+002	(-2.25678489000196e+001dB,-9.00005138663461e+001°)
1.12719745617551e+002	(-2.25478488737589e+001dB,-9.00005150509303e+001°)
1.12979591467279e+002	(-2.25278488473769e+001dB,-9.00005162382454e+001°)
1.13240036323555e+002	(-2.25078488208732e+001dB,-9.00005174282975e+001°)
1.13501081567231e+002	(-2.24878487942472e+001dB,-9.00005186210930e+001°)
1.13762728582343e+002	(-2.24678487674983e+001dB,-9.00005198166381e+001°)
1.14024978756117e+002	(-2.24478487406259e+001dB,-9.00005210149392e+001°)
1.14287833478977e+002	(-2.24278487136295e+001dB,-9.00005222160028e+001°)
1.14551294144553e+002	(-2.24078486865084e+001dB,-9.00005234198350e+001°)
1.14815362149688e+002	(-2.23878486592622e+001dB,-9.00005246264424e+001°)
1.15080038894443e+002	(-2.23678486318902e+001dB,-9.00005258358313e+001°)
1.15345325782109e+002	(-2.23478486043919e+001dB,-9.00005270480081e+001°)
1.15611224219209e+002	(-2.23278485767666e+001dB,-9.00005282629793e+001°)
1.15877735615512e+002	(-2.23078485490139e+001dB,-9.00005294807513e+001°)
1.16144861384034e+002	(-2.22878485211330e+001dB,-9.00005307013305e+001°)
1.16412602941049e+002	(-2.22678484931234e+001dB,-9.00005319247234e+001°)
1.16680961706096e+002	(-2.22478484649846e+001dB,-9.00005331509366e+001°)
1.16949939101987e+002	(-2.22278484367158e+001dB,-9.00005343799765e+001°)
1.17219536554813e+002	(-2.22078484083166e+001dB,-9.00005356118496e+001°)
1.17489755493952e+002	(-2.21878483797863e+001dB,-9.00005368465625e+001°)
1.17760597352080e+002	(-2.21678483511243e+001dB,-9.00005380841217e+001°)
1.18032063565172e+002	(-2.21478483223300e+001dB,-9.00005393245337e+001°)
1.18304155572516e+002	(-2.21278482934028e+001dB,-9.00005405678052e+001°)
1.18576874816716e+002	(-2.21078482643421e+001dB,-9.00005418139427e+001°)
1.18850222743701e+002	(-2.20878482351473e+001dB,-9.00005430629529e+001°)
1.19124200802737e+002	(-2.20678482058176e+001dB,-9.00005443148424e+001°)
1.19398810446427e+002	(-2.20478481763527e+001dB,-9.00005455696177e+001°)
1.19674053130724e+002	(-2.20278481467517e+001dB,-9.00005468272856e+001°)
1.19949930314937e+002	(-2.20078481170140e+001dB,-9.00005480878527e+001°)
1.20226443461741e+002	(-2.19878480871391e+001dB,-9.00005493513258e+001°)
1.20503594037179e+002	(-2.19678480571263e+001dB,-9.00005506177114e+001°)
1.20781383510677e+002	(-2.19478480269750e+001dB,-9.00005518870164e+001°)
1.21059813355048e+002	(-2.19278479966845e+001dB,-9.00005531592474e+001°)
1.21338885046497e+002	(-2.19078479662542e+001dB,-9.00005544344112e+001°)
1.21618600064636e+002	(-2.18878479356834e+001dB,-9.00005557125146e+001°)
1.21898959892486e+002	(-2.18678479049716e+001dB,-9.00005569935642e+001°)
1.22179966016487e+002	(-2.18478478741179e+001dB,-9.00005582775671e+001°)
1.22461619926504e+002	(-2.18278478431219e+001dB,-9.00005595645298e+001°)
1.22743923115840e+002	(-2.18078478119827e+001dB,-9.00005608544593e+001°)
1.23026877081238e+002	(-2.17878477806999e+001dB,-9.00005621473624e+001°)
1.23310483322890e+002	(-2.17678477492726e+001dB,-9.00005634432460e+001°)
1.23594743344450e+002	(-2.17478477177003e+001dB,-9.00005647421169e+001°)
1.23879658653036e+002	(-2.17278476859823e+001dB,-9.00005660439820e+001°)
1.24165230759240e+002	(-2.17078476541178e+001dB,-9.00005673488482e+001°)
1.24451461177138e+002	(-2.16878476221063e+001dB,-9.00005686567224e+001°)
1.24738351424294e+002	(-2.16678475899470e+001dB,-9.00005699676116e+001°)
1.25025903021771e+002	(-2.16478475576393e+001dB,-9.00005712815226e+001°)
1.25314117494141e+002	(-2.16278475251824e+001dB,-9.00005725984626e+001°)
1.25602996369487e+002	(-2.16078474925758e+001dB,-9.00005739184384e+001°)
1.25892541179416e+002	(-2.15878474598186e+001dB,-9.00005752414571e+001°)
1.26182753459066e+002	(-2.15678474269102e+001dB,-9.00005765675257e+001°)
1.26473634747114e+002	(-2.15478473938500e+001dB,-9.00005778966512e+001°)
1.26765186585784e+002	(-2.15278473606371e+001dB,-9.00005792288406e+001°)
1.27057410520853e+002	(-2.15078473272709e+001dB,-9.00005805641010e+001°)
1.27350308101665e+002	(-2.14878472937507e+001dB,-9.00005819024396e+001°)
1.27643880881134e+002	(-2.14678472600758e+001dB,-9.00005832438633e+001°)
1.27938130415752e+002	(-2.14478472262455e+001dB,-9.00005845883793e+001°)
1.28233058265601e+002	(-2.14278471922590e+001dB,-9.00005859359947e+001°)
1.28528665994361e+002	(-2.14078471581156e+001dB,-9.00005872867168e+001°)
1.28824955169313e+002	(-2.13878471238146e+001dB,-9.00005886405525e+001°)
1.29121927361353e+002	(-2.13678470893553e+001dB,-9.00005899975092e+001°)
1.29419584144998e+002	(-2.13478470547370e+001dB,-9.00005913575940e+001°)
1.29717927098395e+002	(-2.13278470199588e+001dB,-9.00005927208141e+001°)
1.30016957803328e+002	(-2.13078469850202e+001dB,-9.00005940871767e+001°)
1.30316677845229e+002	(-2.12878469499202e+001dB,-9.00005954566892e+001°)
1.30617088813183e+002	(-2.12678469146583e+001dB,-9.00005968293587e+001°)
1.30918192299940e+002	(-2.12478468792335e+001dB,-9.00005982051925e+001°)
1.31219989901920e+002	(-2.12278468436453e+001dB,-9.00005995841979e+001°)
1.31522483219223e+002	(-2.12078468078928e+001dB,-9.00006009663823e+001°)
1.31825673855640e+002	(-2.11878467719753e+001dB,-9.00006023517530e+001°)
1.32129563418657e+002	(-2.11678467358919e+001dB,-9.00006037403172e+001°)
1.32434153519466e+002	(-2.11478466996421e+001dB,-9.00006051320824e+001°)
1.32739445772973e+002	(-2.11278466632249e+001dB,-9.00006065270560e+001°)
1.33045441797808e+002	(-2.11078466266396e+001dB,-9.00006079252454e+001°)
1.33352143216332e+002	(-2.10878465898854e+001dB,-9.00006093266578e+001°)
1.33659551654643e+002	(-2.10678465529616e+001dB,-9.00006107313009e+001°)
1.33967668742593e+002	(-2.10478465158674e+001dB,-9.00006121391820e+001°)
1.34276496113786e+002	(-2.10278464786019e+001dB,-9.00006135503086e+001°)
1.34586035405594e+002	(-2.10078464411645e+001dB,-9.00006149646883e+001°)
1.34896288259165e+002	(-2.09878464035542e+001dB,-9.00006163823283e+001°)
1.35207256319427e+002	(-2.09678463657703e+001dB,-9.00006178032364e+001°)
1.35518941235103e+002	(-2.09478463278121e+001dB,-9.00006192274200e+001°)
1.35831344658715e+002	(-2.09278462896786e+001dB,-9.00006206548867e+001°)
1.36144468246594e+002	(-2.09078462513691e+001dB,-9.00006220856441e+001°)
1.36458313658892e+002	(-2.08878462128827e+001dB,-9.00006235196996e+001°)
1.36772882559584e+002	(-2.08678461742188e+001dB,-9.00006249570611e+001°)
1.37088176616484e+002	(-2.08478461353763e+001dB,-9.00006263977360e+001°)
1.37404197501251e+002	(-2.08278460963546e+001dB,-9.00006278417319e+001°)
1.37720946889394e+002	(-2.08078460571528e+001dB,-9.00006292890567e+001°)
1.38038426460288e+002	(-2.07878460177700e+001dB,-9.00006307397178e+001°)
1.38356637897177e+002	(-2.07678459782054e+001dB,-9.00006321937231e+001°)
1.38675582887188e+002	(-2.07478459384582e+001dB,-9.00006336510802e+001°)
1.38995263121334e+002	(-2.07278458985276e+001dB,-9.00006351117969e+001°)
1.39315680294529e+002	(-2.07078458584126e+001dB,-9.00006365758809e+001°)
1.39636836105593e+002	(-2.06878458181124e+001dB,-9.00006380433399e+001°)
1.39958732257261e+002	(-2.06678457776263e+001dB,-9.00006395141818e+001°)
1.40281370456195e+002	(-2.06478457369533e+001dB,-9.00006409884143e+001°)
1.40604752412990e+002	(-2.06278456960925e+001dB,-9.00006424660453e+001°)
1.40928879842186e+002	(-2.06078456550431e+001dB,-9.00006439470825e+001°)
1.41253754462274e+002	(-2.05878456138043e+001dB,-9.00006454315340e+001°)
1.41579377995707e+002	(-2.05678455723751e+001dB,-9.00006469194074e+001°)
1.41905752168908e+002	(-2.05478455307547e+001dB,-9.00006484107107e+001°)
1.42232878712281e+002	(-2.05278454889421e+001dB,-9.00006499054518e+001°)
1.42560759360218e+002	(-2.05078454469366e+001dB,-9.00006514036387e+001°)
1.42889395851109e+002	(-2.04878454047372e+001dB,-9.00006529052793e+001°)
1.43218789927353e+002	(-2.04678453623430e+001dB,-9.00006544103815e+001°)
1.43548943335365e+002	(-2.04478453197531e+001dB,-9.00006559189533e+001°)
1.43879857825583e+002	(-2.04278452769666e+001dB,-9.00006574310027e+001°)
1.44211535152486e+002	(-2.04078452339826e+001dB,-9.00006589465378e+001°)
1.44543977074592e+002	(-2.03878451908003e+001dB,-9.00006604655665e+001°)
1.44877185354475e+002	(-2.03678451474186e+001dB,-9.00006619880969e+001°)
1.45211161758773e+002	(-2.03478451038366e+001dB,-9.00006635141372e+001°)
1.45545908058195e+002	(-2.03278450600535e+001dB,-9.00006650436953e+001°)
1.45881426027534e+002	(-2.03078450160683e+001dB,-9.00006665767794e+001°)
1.46217717445671e+002	(-2.02878449718801e+001dB,-9.00006681133977e+001°)
1.46554784095590e+002	(-2.02678449274879e+001dB,-9.00006696535582e+001°)
1.46892627764385e+002	(-2.02478448828908e+001dB,-9.00006711972692e+001°)
1.47231250243271e+002	(-2.02278448380879e+001dB,-9.00006727445388e+001°)
1.47570653327588e+002	(-2.02078447930781e+001dB,-9.00006742953752e+001°)
1.47910838816819e+002	(-2.01878447478606e+001dB,-9.00006758497867e+001°)
1.48251808514594e+002	(-2.01678447024344e+001dB,-9.00006774077814e+001°)
1.48593564228699e+002	(-2.01478446567985e+001dB,-9.00006789693677e+001°)
1.48936107771090e+002	(-2.01278446109520e+001dB,-9.00006805345539e+001°)
1.49279440957898e+002	(-2.01078445648938e+001dB,-9.00006821033481e+001°)
1.49623565609442e+002	(-2.00878445186231e+001dB,-9.00006836757588e+001°)
1.49968483550236e+002	(-2.00678444721388e+001dB,-9.00006852517943e+001°)
1.50314196609001e+002	(-2.00478444254399e+001dB,-9.00006868314629e+001°)
1.50660706618673e+002	(-2.00278443785254e+001dB,-9.00006884147730e+001°)
1.51008015416413e+002	(-2.00078443313944e+001dB,-9.00006900017331e+001°)
1.51356124843619e+002	(-1.99878442840459e+001dB,-9.00006915923514e+001°)
1.51705036745932e+002	(-1.99678442364788e+001dB,-9.00006931866365e+001°)
1.52054752973248e+002	(-1.99478441886922e+001dB,-9.00006947845969e+001°)
1.52405275379728e+002	(-1.99278441406849e+001dB,-9.00006963862409e+001°)
1.52756605823806e+002	(-1.99078440924561e+001dB,-9.00006979915770e+001°)
1.53108746168202e+002	(-1.98878440440047e+001dB,-9.00006996006139e+001°)
1.53461698279928e+002	(-1.98678439953296e+001dB,-9.00007012133600e+001°)
1.53815464030302e+002	(-1.98478439464299e+001dB,-9.00007028298238e+001°)
1.54170045294954e+002	(-1.98278438973044e+001dB,-9.00007044500140e+001°)
1.54525443953840e+002	(-1.98078438479522e+001dB,-9.00007060739391e+001°)
1.54881661891247e+002	(-1.97878437983722e+001dB,-9.00007077016077e+001°)
1.55238700995807e+002	(-1.97678437485634e+001dB,-9.00007093330285e+001°)
1.55596563160506e+002	(-1.97478436985246e+001dB,-9.00007109682101e+001°)
1.55955250282694e+002	(-1.97278436482549e+001dB,-9.00007126071612e+001°)
1.56314764264094e+002	(-1.97078435977531e+001dB,-9.00007142498905e+001°)
1.56675107010813e+002	(-1.96878435470182e+001dB,-9.00007158964066e+001°)
1.57036280433354e+002	(-1.96678434960491e+001dB,-9.00007175467184e+001°)
1.57398286446620e+002	(-1.96478434448448e+001dB,-9.00007192008345e+001°)
1.57761126969933e+002	(-1.96278433934042e+001dB,-9.00007208587637e+001°)
1.58124803927037e+002	(-1.96078433417260e+001dB,-9.00007225205149e+001°)
1.58489319246110e+002	(-1.95878432898094e+001dB,-9.00007241860968e+001°)
1.58854674859776e+002	(-1.95678432376531e+001dB,-9.00007258555183e+001°)
1.59220872705115e+002	(-1.95478431852561e+001dB,-9.00007275287882e+001°)
1.59587914723672e+002	(-1.95278431326172e+001dB,-9.00007292059153e+001°)
1.59955802861465e+002	(-1.95078430797354e+001dB,-9.00007308869087e+001°)
1.60324539069002e+002	(-1.94878430266094e+001dB,-9.00007325717771e+001°)
1.60694125301286e+002	(-1.94678429732383e+001dB,-9.00007342605296e+001°)
1.61064563517825e+002	(-1.94478429196208e+001dB,-9.00007359531751e+001°)
1.61435855682647e+002	(-1.94278428657558e+001dB,-9.00007376497225e+001°)
1.61808003764305e+002	(-1.94078428116421e+001dB,-9.00007393501808e+001°)
1.62181009735891e+002	(-1.93878427572787e+001dB,-9.00007410545591e+001°)
1.62554875575047e+002	(-1.93678427026644e+001dB,-9.00007427628664e+001°)
1.62929603263970e+002	(-1.93478426477980e+001dB,-9.00007444751118e+001°)
1.63305194789432e+002	(-1.93278425926783e+001dB,-9.00007461913043e+001°)
1.63681652142779e+002	(-1.93078425373042e+001dB,-9.00007479114530e+001°)
1.64058977319952e+002	(-1.92878424816745e+001dB,-9.00007496355670e+001°)
1.64437172321491e+002	(-1.92678424257880e+001dB,-9.00007513636556e+001°)
1.64816239152549e+002	(-1.92478423696436e+001dB,-9.00007530957278e+001°)
1.65196179822900e+002	(-1.92278423132400e+001dB,-9.00007548317929e+001°)
1.65576996346951e+002	(-1.92078422565761e+001dB,-9.00007565718600e+001°)
1.65958690743754e+002	(-1.91878421996506e+001dB,-9.00007583159384e+001°)
1.66341265037015e+002	(-1.91678421424624e+001dB,-9.00007600640373e+001°)
1.66724721255104e+002	(-1.91478420850102e+001dB,-9.00007618161660e+001°)
1.67109061431069e+002	(-1.91278420272928e+001dB,-9.00007635723338e+001°)
1.67494287602642e+002	(-1.91078419693090e+001dB,-9.00007653325499e+001°)
1.67880401812254e+002	(-1.90878419110576e+001dB,-9.00007670968238e+001°)
1.68267406107045e+002	(-1.90678418525373e+001dB,-9.00007688651647e+001°)
1.68655302538872e+002	(-1.90478417937468e+001dB,-9.00007706375821e+001°)
1.69044093164324e+002	(-1.90278417346850e+001dB,-9.00007724140853e+001°)
1.69433780044731e+002	(-1.90078416753506e+001dB,-9.00007741946838e+001°)
1.69824365246172e+002	(-1.89878416157423e+001dB,-9.00007759793870e+001°)
1.70215850839493e+002	(-1.89678415558589e+001dB,-9.00007777682044e+001°)
1.70608238900310e+002	(-1.89478414956990e+001dB,-9.00007795611454e+001°)
1.71001531509027e+002	(-1.89278414352615e+001dB,-9.00007813582195e+001°)
1.71395730750840e+002	(-1.89078413745450e+001dB,-9.00007831594364e+001°)
1.71790838715757e+002	(-1.88878413135482e+001dB,-9.00007849648055e+001°)
1.72186857498599e+002	(-1.88678412522699e+001dB,-9.00007867743364e+001°)
1.72583789199018e+002	(-1.88478411907088e+001dB,-9.00007885880387e+001°)
1.72981635921508e+002	(-1.88278411288635e+001dB,-9.00007904059220e+001°)
1.73380399775412e+002	(-1.88078410667327e+001dB,-9.00007922279960e+001°)
1.73780082874935e+002	(-1.87878410043152e+001dB,-9.00007940542702e+001°)
1.74180687339159e+002	(-1.87678409416095e+001dB,-9.00007958847545e+001°)
1.74582215292048e+002	(-1.87478408786144e+001dB,-9.00007977194585e+001°)
1.74984668862463e+002	(-1.87278408153285e+001dB,-9.00007995583919e+001°)
1.75388050184174e+002	(-1.87078407517506e+001dB,-9.00008014015645e+001°)
1.75792361395867e+002	(-1.86878406878791e+001dB,-9.00008032489861e+001°)
1.76197604641161e+002	(-1.86678406237128e+001dB,-9.00008051006664e+001°)
1.76603782068614e+002	(-1.86478405592504e+001dB,-9.00008069566152e+001°)
1.77010895831740e+002	(-1.86278404944904e+001dB,-9.00008088168425e+001°)
1.77418948089014e+002	(-1.86078404294315e+001dB,-9.00008106813580e+001°)
1.77827941003890e+002	(-1.85878403640723e+001dB,-9.00008125501717e+001°)
1.78237876744807e+002	(-1.85678402984114e+001dB,-9.00008144232934e+001°)
1.78648757485203e+002	(-1.85478402324474e+001dB,-9.00008163007332e+001°)
1.79060585403527e+002	(-1.85278401661790e+001dB,-9.00008181825009e+001°)
1.79473362683250e+002	(-1.85078400996047e+001dB,-9.00008200686065e+001°)
1.79887091512876e+002	(-1.84878400327231e+001dB,-9.00008219590600e+001°)
1.80301774085954e+002	(-1.84678399655327e+001dB,-9.00008238538715e+001°)
1.80717412601090e+002	(-1.84478398980323e+001dB,-9.00008257530510e+001°)
1.81134009261958e+002	(-1.84278398302202e+001dB,-9.00008276566085e+001°)
1.81551566277311e+002	(-1.84078397620952e+001dB,-9.00008295645542e+001°)
1.81970085860996e+002	(-1.83878396936557e+001dB,-9.00008314768981e+001°)
1.82389570231961e+002	(-1.83678396249003e+001dB,-9.00008333936505e+001°)
1.82810021614272e+002	(-1.83478395558275e+001dB,-9.00008353148214e+001°)
1.83231442237119e+002	(-1.83278394864359e+001dB,-9.00008372404211e+001°)
1.83653834334832e+002	(-1.83078394167241e+001dB,-9.00008391704598e+001°)
1.84077200146893e+002	(-1.82878393466904e+001dB,-9.00008411049477e+001°)
1.84501541917945e+002	(-1.82678392763335e+001dB,-9.00008430438950e+001°)
1.84926861897805e+002	(-1.82478392056518e+001dB,-9.00008449873120e+001°)
1.85353162341478e+002	(-1.82278391346439e+001dB,-9.00008469352091e+001°)
1.85780445509167e+002	(-1.82078390633082e+001dB,-9.00008488875966e+001°)
1.86208713666284e+002	(-1.81878389916432e+001dB,-9.00008508444848e+001°)
1.86637969083464e+002	(-1.81678389196475e+001dB,-9.00008528058841e+001°)
1.87068214036577e+002	(-1.81478388473194e+001dB,-9.00008547718048e+001°)
