Freq.	V(out)
1.00000000000000e-003	(1.99996973495590e+001dB,1.79999620889925e+002°)
1.00230523807790e-003	(1.99996973495581e+001dB,1.79999620015986e+002°)
1.00461579027840e-003	(1.99996973495572e+001dB,1.79999619140032e+002°)
1.00693166885180e-003	(1.99996973495563e+001dB,1.79999618262059e+002°)
1.00925288607668e-003	(1.99996973495554e+001dB,1.79999617382062e+002°)
1.01157945425990e-003	(1.99996973495545e+001dB,1.79999616500037e+002°)
1.01391138573668e-003	(1.99996973495537e+001dB,1.79999615615978e+002°)
1.01624869287070e-003	(1.99996973495527e+001dB,1.79999614729881e+002°)
1.01859138805412e-003	(1.99996973495518e+001dB,1.79999613841742e+002°)
1.02093948370768e-003	(1.99996973495509e+001dB,1.79999612951555e+002°)
1.02329299228075e-003	(1.99996973495500e+001dB,1.79999612059316e+002°)
1.02565192625141e-003	(1.99996973495491e+001dB,1.79999611165021e+002°)
1.02801629812647e-003	(1.99996973495482e+001dB,1.79999610268664e+002°)
1.03038612044162e-003	(1.99996973495473e+001dB,1.79999609370240e+002°)
1.03276140576140e-003	(1.99996973495463e+001dB,1.79999608469746e+002°)
1.03514216667934e-003	(1.99996973495454e+001dB,1.79999607567175e+002°)
1.03752841581801e-003	(1.99996973495444e+001dB,1.79999606662524e+002°)
1.03992016582906e-003	(1.99996973495435e+001dB,1.79999605755787e+002°)
1.04231742939330e-003	(1.99996973495425e+001dB,1.79999604846961e+002°)
1.04472021922080e-003	(1.99996973495416e+001dB,1.79999603936039e+002°)
1.04712854805090e-003	(1.99996973495406e+001dB,1.79999603023017e+002°)
1.04954242865232e-003	(1.99996973495397e+001dB,1.79999602107891e+002°)
1.05196187382322e-003	(1.99996973495387e+001dB,1.79999601190655e+002°)
1.05438689639126e-003	(1.99996973495377e+001dB,1.79999600271304e+002°)
1.05681750921366e-003	(1.99996973495368e+001dB,1.79999599349834e+002°)
1.05925372517729e-003	(1.99996973495358e+001dB,1.79999598426240e+002°)
1.06169555719872e-003	(1.99996973495348e+001dB,1.79999597500517e+002°)
1.06414301822431e-003	(1.99996973495338e+001dB,1.79999596572660e+002°)
1.06659612123026e-003	(1.99996973495328e+001dB,1.79999595642664e+002°)
1.06905487922266e-003	(1.99996973495318e+001dB,1.79999594710524e+002°)
1.07151930523760e-003	(1.99996973495308e+001dB,1.79999593776235e+002°)
1.07398941234124e-003	(1.99996973495298e+001dB,1.79999592839793e+002°)
1.07646521362983e-003	(1.99996973495288e+001dB,1.79999591901192e+002°)
1.07894672222983e-003	(1.99996973495278e+001dB,1.79999590960427e+002°)
1.08143395129794e-003	(1.99996973495268e+001dB,1.79999590017493e+002°)
1.08392691402120e-003	(1.99996973495257e+001dB,1.79999589072386e+002°)
1.08642562361706e-003	(1.99996973495247e+001dB,1.79999588125100e+002°)
1.08893009333343e-003	(1.99996973495237e+001dB,1.79999587175630e+002°)
1.09144033644875e-003	(1.99996973495226e+001dB,1.79999586223972e+002°)
1.09395636627209e-003	(1.99996973495216e+001dB,1.79999585270119e+002°)
1.09647819614318e-003	(1.99996973495205e+001dB,1.79999584314068e+002°)
1.09900583943252e-003	(1.99996973495195e+001dB,1.79999583355813e+002°)
1.10153930954141e-003	(1.99996973495184e+001dB,1.79999582395349e+002°)
1.10407861990207e-003	(1.99996973495173e+001dB,1.79999581432671e+002°)
1.10662378397766e-003	(1.99996973495163e+001dB,1.79999580467774e+002°)
1.10917481526240e-003	(1.99996973495152e+001dB,1.79999579500652e+002°)
1.11173172728159e-003	(1.99996973495141e+001dB,1.79999578531301e+002°)
1.11429453359173e-003	(1.99996973495130e+001dB,1.79999577559715e+002°)
1.11686324778056e-003	(1.99996973495119e+001dB,1.79999576585890e+002°)
1.11943788346715e-003	(1.99996973495108e+001dB,1.79999575609820e+002°)
1.12201845430196e-003	(1.99996973495097e+001dB,1.79999574631499e+002°)
1.12460497396692e-003	(1.99996973495086e+001dB,1.79999573650923e+002°)
1.12719745617551e-003	(1.99996973495075e+001dB,1.79999572668087e+002°)
1.12979591467279e-003	(1.99996973495064e+001dB,1.79999571682986e+002°)
1.13240036323555e-003	(1.99996973495053e+001dB,1.79999570695613e+002°)
1.13501081567231e-003	(1.99996973495042e+001dB,1.79999569705964e+002°)
1.13762728582343e-003	(1.99996973495030e+001dB,1.79999568714034e+002°)
1.14024978756117e-003	(1.99996973495019e+001dB,1.79999567719817e+002°)
1.14287833478977e-003	(1.99996973495008e+001dB,1.79999566723308e+002°)
1.14551294144553e-003	(1.99996973494996e+001dB,1.79999565724502e+002°)
1.14815362149688e-003	(1.99996973494985e+001dB,1.79999564723394e+002°)
1.15080038894443e-003	(1.99996973494973e+001dB,1.79999563719978e+002°)
1.15345325782109e-003	(1.99996973494961e+001dB,1.79999562714248e+002°)
1.15611224219209e-003	(1.99996973494950e+001dB,1.79999561706201e+002°)
1.15877735615512e-003	(1.99996973494938e+001dB,1.79999560695829e+002°)
1.16144861384034e-003	(1.99996973494926e+001dB,1.79999559683128e+002°)
1.16412602941049e-003	(1.99996973494914e+001dB,1.79999558668093e+002°)
1.16680961706096e-003	(1.99996973494903e+001dB,1.79999557650718e+002°)
1.16949939101987e-003	(1.99996973494891e+001dB,1.79999556630998e+002°)
1.17219536554813e-003	(1.99996973494879e+001dB,1.79999555608927e+002°)
1.17489755493952e-003	(1.99996973494867e+001dB,1.79999554584499e+002°)
1.17760597352080e-003	(1.99996973494854e+001dB,1.79999553557711e+002°)
1.18032063565172e-003	(1.99996973494842e+001dB,1.79999552528555e+002°)
1.18304155572516e-003	(1.99996973494830e+001dB,1.79999551497027e+002°)
1.18576874816716e-003	(1.99996973494818e+001dB,1.79999550463120e+002°)
1.18850222743701e-003	(1.99996973494805e+001dB,1.79999549426831e+002°)
1.19124200802737e-003	(1.99996973494793e+001dB,1.79999548388152e+002°)
1.19398810446427e-003	(1.99996973494781e+001dB,1.79999547347080e+002°)
1.19674053130724e-003	(1.99996973494768e+001dB,1.79999546303607e+002°)
1.19949930314937e-003	(1.99996973494755e+001dB,1.79999545257729e+002°)
1.20226443461741e-003	(1.99996973494743e+001dB,1.79999544209439e+002°)
1.20503594037179e-003	(1.99996973494730e+001dB,1.79999543158734e+002°)
1.20781383510677e-003	(1.99996973494717e+001dB,1.79999542105606e+002°)
1.21059813355048e-003	(1.99996973494705e+001dB,1.79999541050050e+002°)
1.21338885046497e-003	(1.99996973494692e+001dB,1.79999539992061e+002°)
1.21618600064636e-003	(1.99996973494679e+001dB,1.79999538931634e+002°)
1.21898959892486e-003	(1.99996973494666e+001dB,1.79999537868761e+002°)
1.22179966016487e-003	(1.99996973494653e+001dB,1.79999536803439e+002°)
1.22461619926504e-003	(1.99996973494640e+001dB,1.79999535735660e+002°)
1.22743923115840e-003	(1.99996973494627e+001dB,1.79999534665420e+002°)
1.23026877081238e-003	(1.99996973494613e+001dB,1.79999533592713e+002°)
1.23310483322890e-003	(1.99996973494600e+001dB,1.79999532517534e+002°)
1.23594743344450e-003	(1.99996973494587e+001dB,1.79999531439875e+002°)
1.23879658653036e-003	(1.99996973494573e+001dB,1.79999530359733e+002°)
1.24165230759240e-003	(1.99996973494560e+001dB,1.79999529277100e+002°)
1.24451461177138e-003	(1.99996973494546e+001dB,1.79999528191972e+002°)
1.24738351424294e-003	(1.99996973494533e+001dB,1.79999527104342e+002°)
1.25025903021771e-003	(1.99996973494519e+001dB,1.79999526014205e+002°)
1.25314117494141e-003	(1.99996973494505e+001dB,1.79999524921555e+002°)
1.25602996369487e-003	(1.99996973494492e+001dB,1.79999523826386e+002°)
1.25892541179416e-003	(1.99996973494478e+001dB,1.79999522728692e+002°)
1.26182753459066e-003	(1.99996973494464e+001dB,1.79999521628468e+002°)
1.26473634747114e-003	(1.99996973494450e+001dB,1.79999520525708e+002°)
1.26765186585784e-003	(1.99996973494436e+001dB,1.79999519420405e+002°)
1.27057410520853e-003	(1.99996973494422e+001dB,1.79999518312555e+002°)
1.27350308101665e-003	(1.99996973494407e+001dB,1.79999517202151e+002°)
1.27643880881134e-003	(1.99996973494393e+001dB,1.79999516089187e+002°)
1.27938130415752e-003	(1.99996973494379e+001dB,1.79999514973657e+002°)
1.28233058265601e-003	(1.99996973494365e+001dB,1.79999513855556e+002°)
1.28528665994361e-003	(1.99996973494350e+001dB,1.79999512734877e+002°)
1.28824955169313e-003	(1.99996973494336e+001dB,1.79999511611615e+002°)
1.29121927361353e-003	(1.99996973494321e+001dB,1.79999510485764e+002°)
1.29419584144998e-003	(1.99996973494306e+001dB,1.79999509357317e+002°)
1.29717927098395e-003	(1.99996973494292e+001dB,1.79999508226269e+002°)
1.30016957803328e-003	(1.99996973494277e+001dB,1.79999507092613e+002°)
1.30316677845229e-003	(1.99996973494262e+001dB,1.79999505956344e+002°)
1.30617088813183e-003	(1.99996973494247e+001dB,1.79999504817456e+002°)
1.30918192299940e-003	(1.99996973494232e+001dB,1.79999503675942e+002°)
1.31219989901919e-003	(1.99996973494217e+001dB,1.79999502531797e+002°)
1.31522483219223e-003	(1.99996973494202e+001dB,1.79999501385015e+002°)
1.31825673855640e-003	(1.99996973494187e+001dB,1.79999500235588e+002°)
1.32129563418657e-003	(1.99996973494172e+001dB,1.79999499083512e+002°)
1.32434153519466e-003	(1.99996973494156e+001dB,1.79999497928781e+002°)
1.32739445772973e-003	(1.99996973494141e+001dB,1.79999496771387e+002°)
1.33045441797808e-003	(1.99996973494126e+001dB,1.79999495611325e+002°)
1.33352143216331e-003	(1.99996973494110e+001dB,1.79999494448589e+002°)
1.33659551654643e-003	(1.99996973494094e+001dB,1.79999493283173e+002°)
1.33967668742593e-003	(1.99996973494079e+001dB,1.79999492115070e+002°)
1.34276496113785e-003	(1.99996973494063e+001dB,1.79999490944274e+002°)
1.34586035405594e-003	(1.99996973494047e+001dB,1.79999489770780e+002°)
1.34896288259164e-003	(1.99996973494031e+001dB,1.79999488594580e+002°)
1.35207256319427e-003	(1.99996973494015e+001dB,1.79999487415669e+002°)
1.35518941235103e-003	(1.99996973493999e+001dB,1.79999486234040e+002°)
1.35831344658714e-003	(1.99996973493983e+001dB,1.79999485049687e+002°)
1.36144468246594e-003	(1.99996973493967e+001dB,1.79999483862604e+002°)
1.36458313658891e-003	(1.99996973493951e+001dB,1.79999482672784e+002°)
1.36772882559584e-003	(1.99996973493934e+001dB,1.79999481480222e+002°)
1.37088176616484e-003	(1.99996973493918e+001dB,1.79999480284910e+002°)
1.37404197501250e-003	(1.99996973493901e+001dB,1.79999479086843e+002°)
1.37720946889394e-003	(1.99996973493885e+001dB,1.79999477886014e+002°)
1.38038426460287e-003	(1.99996973493868e+001dB,1.79999476682417e+002°)
1.38356637897177e-003	(1.99996973493851e+001dB,1.79999475476046e+002°)
1.38675582887188e-003	(1.99996973493835e+001dB,1.79999474266893e+002°)
1.38995263121334e-003	(1.99996973493818e+001dB,1.79999473054953e+002°)
1.39315680294529e-003	(1.99996973493801e+001dB,1.79999471840219e+002°)
1.39636836105593e-003	(1.99996973493784e+001dB,1.79999470622685e+002°)
1.39958732257261e-003	(1.99996973493767e+001dB,1.79999469402345e+002°)
1.40281370456195e-003	(1.99996973493749e+001dB,1.79999468179191e+002°)
1.40604752412990e-003	(1.99996973493732e+001dB,1.79999466953217e+002°)
1.40928879842186e-003	(1.99996973493715e+001dB,1.79999465724417e+002°)
1.41253754462274e-003	(1.99996973493697e+001dB,1.79999464492785e+002°)
1.41579377995707e-003	(1.99996973493680e+001dB,1.79999463258313e+002°)
1.41905752168908e-003	(1.99996973493662e+001dB,1.79999462020996e+002°)
1.42232878712281e-003	(1.99996973493645e+001dB,1.79999460780826e+002°)
1.42560759360218e-003	(1.99996973493627e+001dB,1.79999459537798e+002°)
1.42889395851109e-003	(1.99996973493609e+001dB,1.79999458291904e+002°)
1.43218789927353e-003	(1.99996973493591e+001dB,1.79999457043137e+002°)
1.43548943335364e-003	(1.99996973493573e+001dB,1.79999455791493e+002°)
1.43879857825583e-003	(1.99996973493555e+001dB,1.79999454536962e+002°)
1.44211535152486e-003	(1.99996973493537e+001dB,1.79999453279540e+002°)
1.44543977074592e-003	(1.99996973493519e+001dB,1.79999452019219e+002°)
1.44877185354475e-003	(1.99996973493500e+001dB,1.79999450755993e+002°)
1.45211161758773e-003	(1.99996973493482e+001dB,1.79999449489855e+002°)
1.45545908058195e-003	(1.99996973493463e+001dB,1.79999448220798e+002°)
1.45881426027534e-003	(1.99996973493445e+001dB,1.79999446948816e+002°)
1.46217717445671e-003	(1.99996973493426e+001dB,1.79999445673901e+002°)
1.46554784095590e-003	(1.99996973493407e+001dB,1.79999444396047e+002°)
1.46892627764385e-003	(1.99996973493389e+001dB,1.79999443115248e+002°)
1.47231250243271e-003	(1.99996973493370e+001dB,1.79999441831496e+002°)
1.47570653327588e-003	(1.99996973493351e+001dB,1.79999440544785e+002°)
1.47910838816819e-003	(1.99996973493331e+001dB,1.79999439255107e+002°)
1.48251808514594e-003	(1.99996973493312e+001dB,1.79999437962457e+002°)
1.48593564228699e-003	(1.99996973493293e+001dB,1.79999436666827e+002°)
1.48936107771090e-003	(1.99996973493274e+001dB,1.79999435368209e+002°)
1.49279440957898e-003	(1.99996973493254e+001dB,1.79999434066599e+002°)
1.49623565609442e-003	(1.99996973493235e+001dB,1.79999432761988e+002°)
1.49968483550236e-003	(1.99996973493215e+001dB,1.79999431454369e+002°)
1.50314196609001e-003	(1.99996973493195e+001dB,1.79999430143736e+002°)
1.50660706618673e-003	(1.99996973493175e+001dB,1.79999428830081e+002°)
1.51008015416413e-003	(1.99996973493155e+001dB,1.79999427513399e+002°)
1.51356124843619e-003	(1.99996973493135e+001dB,1.79999426193681e+002°)
1.51705036745932e-003	(1.99996973493115e+001dB,1.79999424870921e+002°)
1.52054752973248e-003	(1.99996973493095e+001dB,1.79999423545111e+002°)
1.52405275379728e-003	(1.99996973493075e+001dB,1.79999422216246e+002°)
1.52756605823806e-003	(1.99996973493054e+001dB,1.79999420884316e+002°)
1.53108746168202e-003	(1.99996973493034e+001dB,1.79999419549317e+002°)
1.53461698279928e-003	(1.99996973493013e+001dB,1.79999418211240e+002°)
1.53815464030302e-003	(1.99996973492993e+001dB,1.79999416870078e+002°)
1.54170045294954e-003	(1.99996973492972e+001dB,1.79999415525825e+002°)
1.54525443953840e-003	(1.99996973492951e+001dB,1.79999414178473e+002°)
1.54881661891247e-003	(1.99996973492930e+001dB,1.79999412828015e+002°)
1.55238700995807e-003	(1.99996973492909e+001dB,1.79999411474444e+002°)
1.55596563160506e-003	(1.99996973492888e+001dB,1.79999410117752e+002°)
1.55955250282694e-003	(1.99996973492867e+001dB,1.79999408757933e+002°)
1.56314764264094e-003	(1.99996973492845e+001dB,1.79999407394979e+002°)
1.56675107010813e-003	(1.99996973492824e+001dB,1.79999406028884e+002°)
1.57036280433354e-003	(1.99996973492802e+001dB,1.79999404659639e+002°)
1.57398286446620e-003	(1.99996973492781e+001dB,1.79999403287237e+002°)
1.57761126969933e-003	(1.99996973492759e+001dB,1.79999401911672e+002°)
1.58124803927037e-003	(1.99996973492737e+001dB,1.79999400532937e+002°)
1.58489319246110e-003	(1.99996973492715e+001dB,1.79999399151022e+002°)
1.58854674859776e-003	(1.99996973492693e+001dB,1.79999397765922e+002°)
1.59220872705115e-003	(1.99996973492671e+001dB,1.79999396377629e+002°)
1.59587914723672e-003	(1.99996973492649e+001dB,1.79999394986136e+002°)
1.59955802861465e-003	(1.99996973492626e+001dB,1.79999393591435e+002°)
1.60324539069002e-003	(1.99996973492604e+001dB,1.79999392193519e+002°)
1.60694125301286e-003	(1.99996973492581e+001dB,1.79999390792380e+002°)
1.61064563517825e-003	(1.99996973492559e+001dB,1.79999389388012e+002°)
1.61435855682647e-003	(1.99996973492536e+001dB,1.79999387980406e+002°)
1.61808003764305e-003	(1.99996973492513e+001dB,1.79999386569555e+002°)
1.62181009735891e-003	(1.99996973492490e+001dB,1.79999385155452e+002°)
1.62554875575047e-003	(1.99996973492467e+001dB,1.79999383738089e+002°)
1.62929603263970e-003	(1.99996973492444e+001dB,1.79999382317458e+002°)
1.63305194789432e-003	(1.99996973492420e+001dB,1.79999380893553e+002°)
1.63681652142779e-003	(1.99996973492397e+001dB,1.79999379466365e+002°)
1.64058977319952e-003	(1.99996973492374e+001dB,1.79999378035887e+002°)
1.64437172321491e-003	(1.99996973492350e+001dB,1.79999376602112e+002°)
1.64816239152549e-003	(1.99996973492326e+001dB,1.79999375165031e+002°)
1.65196179822900e-003	(1.99996973492302e+001dB,1.79999373724638e+002°)
1.65576996346951e-003	(1.99996973492278e+001dB,1.79999372280924e+002°)
1.65958690743754e-003	(1.99996973492254e+001dB,1.79999370833882e+002°)
1.66341265037015e-003	(1.99996973492230e+001dB,1.79999369383505e+002°)
1.66724721255104e-003	(1.99996973492206e+001dB,1.79999367929783e+002°)
1.67109061431069e-003	(1.99996973492182e+001dB,1.79999366472711e+002°)
1.67494287602642e-003	(1.99996973492157e+001dB,1.79999365012280e+002°)
1.67880401812254e-003	(1.99996973492132e+001dB,1.79999363548482e+002°)
1.68267406107045e-003	(1.99996973492108e+001dB,1.79999362081310e+002°)
1.68655302538872e-003	(1.99996973492083e+001dB,1.79999360610755e+002°)
1.69044093164324e-003	(1.99996973492058e+001dB,1.79999359136811e+002°)
1.69433780044731e-003	(1.99996973492033e+001dB,1.79999357659469e+002°)
1.69824365246172e-003	(1.99996973492008e+001dB,1.79999356178721e+002°)
1.70215850839493e-003	(1.99996973491982e+001dB,1.79999354694559e+002°)
1.70608238900310e-003	(1.99996973491957e+001dB,1.79999353206977e+002°)
1.71001531509027e-003	(1.99996973491931e+001dB,1.79999351715965e+002°)
1.71395730750840e-003	(1.99996973491906e+001dB,1.79999350221516e+002°)
1.71790838715757e-003	(1.99996973491880e+001dB,1.79999348723622e+002°)
1.72186857498599e-003	(1.99996973491854e+001dB,1.79999347222275e+002°)
1.72583789199018e-003	(1.99996973491828e+001dB,1.79999345717467e+002°)
1.72981635921508e-003	(1.99996973491802e+001dB,1.79999344209190e+002°)
1.73380399775412e-003	(1.99996973491776e+001dB,1.79999342697436e+002°)
1.73780082874935e-003	(1.99996973491749e+001dB,1.79999341182197e+002°)
1.74180687339159e-003	(1.99996973491723e+001dB,1.79999339663465e+002°)
1.74582215292048e-003	(1.99996973491696e+001dB,1.79999338141232e+002°)
1.74984668862464e-003	(1.99996973491669e+001dB,1.79999336615490e+002°)
1.75388050184174e-003	(1.99996973491642e+001dB,1.79999335086231e+002°)
1.75792361395867e-003	(1.99996973491615e+001dB,1.79999333553446e+002°)
1.76197604641161e-003	(1.99996973491588e+001dB,1.79999332017128e+002°)
1.76603782068614e-003	(1.99996973491561e+001dB,1.79999330477269e+002°)
1.77010895831740e-003	(1.99996973491534e+001dB,1.79999328933859e+002°)
1.77418948089014e-003	(1.99996973491506e+001dB,1.79999327386892e+002°)
1.77827941003890e-003	(1.99996973491479e+001dB,1.79999325836359e+002°)
1.78237876744807e-003	(1.99996973491451e+001dB,1.79999324282251e+002°)
1.78648757485203e-003	(1.99996973491423e+001dB,1.79999322724561e+002°)
1.79060585403527e-003	(1.99996973491395e+001dB,1.79999321163280e+002°)
1.79473362683250e-003	(1.99996973491367e+001dB,1.79999319598399e+002°)
1.79887091512876e-003	(1.99996973491338e+001dB,1.79999318029912e+002°)
1.80301774085954e-003	(1.99996973491310e+001dB,1.79999316457808e+002°)
1.80717412601090e-003	(1.99996973491282e+001dB,1.79999314882081e+002°)
1.81134009261958e-003	(1.99996973491253e+001dB,1.79999313302721e+002°)
1.81551566277311e-003	(1.99996973491224e+001dB,1.79999311719720e+002°)
1.81970085860996e-003	(1.99996973491195e+001dB,1.79999310133070e+002°)
1.82389570231961e-003	(1.99996973491166e+001dB,1.79999308542763e+002°)
1.82810021614272e-003	(1.99996973491137e+001dB,1.79999306948789e+002°)
1.83231442237119e-003	(1.99996973491108e+001dB,1.79999305351141e+002°)
1.83653834334832e-003	(1.99996973491078e+001dB,1.79999303749810e+002°)
1.84077200146893e-003	(1.99996973491048e+001dB,1.79999302144788e+002°)
1.84501541917945e-003	(1.99996973491019e+001dB,1.79999300536065e+002°)
1.84926861897805e-003	(1.99996973490989e+001dB,1.79999298923634e+002°)
1.85353162341479e-003	(1.99996973490959e+001dB,1.79999297307486e+002°)
1.85780445509167e-003	(1.99996973490929e+001dB,1.79999295687613e+002°)
1.86208713666284e-003	(1.99996973490898e+001dB,1.79999294064005e+002°)
1.86637969083464e-003	(1.99996973490868e+001dB,1.79999292436655e+002°)
1.87068214036577e-003	(1.99996973490837e+001dB,1.79999290805553e+002°)
1.87499450806739e-003	(1.99996973490807e+001dB,1.79999289170691e+002°)
1.87931681680324e-003	(1.99996973490776e+001dB,1.79999287532060e+002°)
1.88364908948977e-003	(1.99996973490745e+001dB,1.79999285889652e+002°)
1.88799134909627e-003	(1.99996973490714e+001dB,1.79999284243457e+002°)
1.89234361864495e-003	(1.99996973490682e+001dB,1.79999282593468e+002°)
1.89670592121112e-003	(1.99996973490651e+001dB,1.79999280939675e+002°)
1.90107827992327e-003	(1.99996973490620e+001dB,1.79999279282070e+002°)
1.90546071796322e-003	(1.99996973490588e+001dB,1.79999277620643e+002°)
