Freq.	I(R1)
1.00000000000000e-001	(-1.04036403061469e+002dB,-9.00179999994215e+001°)
1.00230523807790e-001	(-1.04016403063448e+002dB,-9.00180414937019e+001°)
1.00461579027840e-001	(-1.03996403065435e+002dB,-9.00180830835947e+001°)
1.00693166885180e-001	(-1.03976403067432e+002dB,-9.00181247694532e+001°)
1.00925288607668e-001	(-1.03956403069438e+002dB,-9.00181665513607e+001°)
1.01157945425990e-001	(-1.03936403071453e+002dB,-9.00182084295544e+001°)
1.01391138573668e-001	(-1.03916403073478e+002dB,-9.00182504043037e+001°)
1.01624869287070e-001	(-1.03896403075512e+002dB,-9.00182924758500e+001°)
1.01859138805412e-001	(-1.03876403077555e+002dB,-9.00183346443474e+001°)
1.02093948370768e-001	(-1.03856403079608e+002dB,-9.00183769101015e+001°)
1.02329299228075e-001	(-1.03836403081670e+002dB,-9.00184192732116e+001°)
1.02565192625141e-001	(-1.03816403083742e+002dB,-9.00184617340272e+001°)
1.02801629812647e-001	(-1.03796403085823e+002dB,-9.00185042926919e+001°)
1.03038612044162e-001	(-1.03776403087914e+002dB,-9.00185469495190e+001°)
1.03276140576140e-001	(-1.03756403090014e+002dB,-9.00185897046568e+001°)
1.03514216667934e-001	(-1.03736403092125e+002dB,-9.00186325583242e+001°)
1.03752841581801e-001	(-1.03716403094245e+002dB,-9.00186755108304e+001°)
1.03992016582906e-001	(-1.03696403096374e+002dB,-9.00187185623007e+001°)
1.04231742939330e-001	(-1.03676403098514e+002dB,-9.00187617130477e+001°)
1.04472021922080e-001	(-1.03656403100663e+002dB,-9.00188049632977e+001°)
1.04712854805090e-001	(-1.03636403102823e+002dB,-9.00188483131921e+001°)
1.04954242865232e-001	(-1.03616403104992e+002dB,-9.00188917630195e+001°)
1.05196187382322e-001	(-1.03596403107171e+002dB,-9.00189353130212e+001°)
1.05438689639126e-001	(-1.03576403109361e+002dB,-9.00189789634502e+001°)
1.05681750921366e-001	(-1.03556403111560e+002dB,-9.00190227144936e+001°)
1.05925372517729e-001	(-1.03536403113770e+002dB,-9.00190665663499e+001°)
1.06169555719872e-001	(-1.03516403115990e+002dB,-9.00191105193247e+001°)
1.06414301822431e-001	(-1.03496403118220e+002dB,-9.00191545736006e+001°)
1.06659612123026e-001	(-1.03476403120461e+002dB,-9.00191987294475e+001°)
1.06905487922266e-001	(-1.03456403122711e+002dB,-9.00192429870891e+001°)
1.07151930523760e-001	(-1.03436403124972e+002dB,-9.00192873467790e+001°)
1.07398941234124e-001	(-1.03416403127244e+002dB,-9.00193318087059e+001°)
1.07646521362983e-001	(-1.03396403129526e+002dB,-9.00193763730885e+001°)
1.07894672222983e-001	(-1.03376403131819e+002dB,-9.00194210402689e+001°)
1.08143395129794e-001	(-1.03356403134122e+002dB,-9.00194658103742e+001°)
1.08392691402120e-001	(-1.03336403136436e+002dB,-9.00195106836923e+001°)
1.08642562361706e-001	(-1.03316403138760e+002dB,-9.00195556604654e+001°)
1.08893009333343e-001	(-1.03296403141095e+002dB,-9.00196007409089e+001°)
1.09144033644875e-001	(-1.03276403143442e+002dB,-9.00196459252856e+001°)
1.09395636627209e-001	(-1.03256403145798e+002dB,-9.00196912137945e+001°)
1.09647819614318e-001	(-1.03236403148166e+002dB,-9.00197366067561e+001°)
1.09900583943252e-001	(-1.03216403150545e+002dB,-9.00197821043343e+001°)
1.10153930954141e-001	(-1.03196403152934e+002dB,-9.00198277067774e+001°)
1.10407861990207e-001	(-1.03176403155335e+002dB,-9.00198734143622e+001°)
1.10662378397766e-001	(-1.03156403157747e+002dB,-9.00199192273016e+001°)
1.10917481526240e-001	(-1.03136403160170e+002dB,-9.00199651458737e+001°)
1.11173172728159e-001	(-1.03116403162604e+002dB,-9.00200111702752e+001°)
1.11429453359173e-001	(-1.03096403165049e+002dB,-9.00200573007853e+001°)
1.11686324778056e-001	(-1.03076403167506e+002dB,-9.00201035376205e+001°)
1.11943788346715e-001	(-1.03056403169973e+002dB,-9.00201498810612e+001°)
1.12201845430196e-001	(-1.03036403172453e+002dB,-9.00201963313431e+001°)
1.12460497396692e-001	(-1.03016403174943e+002dB,-9.00202428886936e+001°)
1.12719745617551e-001	(-1.02996403177446e+002dB,-9.00202895533674e+001°)
1.12979591467279e-001	(-1.02976403179960e+002dB,-9.00203363256111e+001°)
1.13240036323555e-001	(-1.02956403182485e+002dB,-9.00203832056625e+001°)
1.13501081567231e-001	(-1.02936403185022e+002dB,-9.00204301938223e+001°)
1.13762728582343e-001	(-1.02916403187571e+002dB,-9.00204772902755e+001°)
1.14024978756117e-001	(-1.02896403190131e+002dB,-9.00205244953056e+001°)
1.14287833478977e-001	(-1.02876403192704e+002dB,-9.00205718091518e+001°)
1.14551294144553e-001	(-1.02856403195288e+002dB,-9.00206192320624e+001°)
1.14815362149688e-001	(-1.02836403197884e+002dB,-9.00206667642772e+001°)
1.15080038894443e-001	(-1.02816403200492e+002dB,-9.00207144061154e+001°)
1.15345325782109e-001	(-1.02796403203112e+002dB,-9.00207621577287e+001°)
1.15611224219209e-001	(-1.02776403205745e+002dB,-9.00208100194366e+001°)
1.15877735615512e-001	(-1.02756403208389e+002dB,-9.00208579914790e+001°)
1.16144861384034e-001	(-1.02736403211046e+002dB,-9.00209060741223e+001°)
1.16412602941049e-001	(-1.02716403213715e+002dB,-9.00209542676065e+001°)
1.16680961706096e-001	(-1.02696403216396e+002dB,-9.00210025721630e+001°)
1.16949939101987e-001	(-1.02676403219089e+002dB,-9.00210509881013e+001°)
1.17219536554813e-001	(-1.02656403221795e+002dB,-9.00210995156177e+001°)
1.17489755493952e-001	(-1.02636403224514e+002dB,-9.00211481550385e+001°)
1.17760597352080e-001	(-1.02616403227245e+002dB,-9.00211969065597e+001°)
1.18032063565172e-001	(-1.02596403229989e+002dB,-9.00212457704724e+001°)
1.18304155572516e-001	(-1.02576403232745e+002dB,-9.00212947470237e+001°)
1.18576874816716e-001	(-1.02556403235514e+002dB,-9.00213438364867e+001°)
1.18850222743701e-001	(-1.02536403238296e+002dB,-9.00213930390907e+001°)
1.19124200802737e-001	(-1.02516403241090e+002dB,-9.00214423551589e+001°)
1.19398810446427e-001	(-1.02496403243898e+002dB,-9.00214917848859e+001°)
1.19674053130724e-001	(-1.02476403246719e+002dB,-9.00215413285595e+001°)
1.19949930314937e-001	(-1.02456403249552e+002dB,-9.00215909864414e+001°)
1.20226443461741e-001	(-1.02436403252399e+002dB,-9.00216407588012e+001°)
1.20503594037179e-001	(-1.02416403255258e+002dB,-9.00216906458823e+001°)
1.20781383510677e-001	(-1.02396403258131e+002dB,-9.00217406479866e+001°)
1.21059813355048e-001	(-1.02376403261018e+002dB,-9.00217907653394e+001°)
1.21338885046497e-001	(-1.02356403263917e+002dB,-9.00218409982408e+001°)
1.21618600064636e-001	(-1.02336403266830e+002dB,-9.00218913469316e+001°)
1.21898959892486e-001	(-1.02316403269756e+002dB,-9.00219418117098e+001°)
1.22179966016487e-001	(-1.02296403272696e+002dB,-9.00219923928145e+001°)
1.22461619926504e-001	(-1.02276403275650e+002dB,-9.00220430905087e+001°)
1.22743923115840e-001	(-1.02256403278617e+002dB,-9.00220939050630e+001°)
1.23026877081238e-001	(-1.02236403281598e+002dB,-9.00221448367715e+001°)
1.23310483322890e-001	(-1.02216403284592e+002dB,-9.00221958859022e+001°)
1.23594743344450e-001	(-1.02196403287601e+002dB,-9.00222470526813e+001°)
1.23879658653036e-001	(-1.02176403290623e+002dB,-9.00222983374242e+001°)
1.24165230759240e-001	(-1.02156403293659e+002dB,-9.00223497404037e+001°)
1.24451461177138e-001	(-1.02136403296709e+002dB,-9.00224012618672e+001°)
1.24738351424294e-001	(-1.02116403299774e+002dB,-9.00224529021177e+001°)
1.25025903021771e-001	(-1.02096403302852e+002dB,-9.00225046613840e+001°)
1.25314117494141e-001	(-1.02076403305945e+002dB,-9.00225565399664e+001°)
1.25602996369487e-001	(-1.02056403309052e+002dB,-9.00226085381717e+001°)
1.25892541179416e-001	(-1.02036403312173e+002dB,-9.00226606562489e+001°)
1.26182753459066e-001	(-1.02016403315308e+002dB,-9.00227128944375e+001°)
1.26473634747114e-001	(-1.01996403318459e+002dB,-9.00227652530801e+001°)
1.26765186585784e-001	(-1.01976403321623e+002dB,-9.00228177323652e+001°)
1.27057410520853e-001	(-1.01956403324803e+002dB,-9.00228703326959e+001°)
1.27350308101665e-001	(-1.01936403327997e+002dB,-9.00229230542419e+001°)
1.27643880881134e-001	(-1.01916403331205e+002dB,-9.00229758973228e+001°)
1.27938130415752e-001	(-1.01896403334429e+002dB,-9.00230288622325e+001°)
1.28233058265601e-001	(-1.01876403337667e+002dB,-9.00230819492237e+001°)
1.28528665994361e-001	(-1.01856403340921e+002dB,-9.00231351586183e+001°)
1.28824955169313e-001	(-1.01836403344189e+002dB,-9.00231884906494e+001°)
1.29121927361353e-001	(-1.01816403347472e+002dB,-9.00232419456510e+001°)
1.29419584144998e-001	(-1.01796403350771e+002dB,-9.00232955238526e+001°)
1.29717927098395e-001	(-1.01776403354085e+002dB,-9.00233492255998e+001°)
1.30016957803328e-001	(-1.01756403357414e+002dB,-9.00234030511028e+001°)
1.30316677845229e-001	(-1.01736403360758e+002dB,-9.00234570007027e+001°)
1.30617088813183e-001	(-1.01716403364118e+002dB,-9.00235110746685e+001°)
1.30918192299940e-001	(-1.01696403367494e+002dB,-9.00235652732901e+001°)
1.31219989901919e-001	(-1.01676403370885e+002dB,-9.00236195968478e+001°)
1.31522483219223e-001	(-1.01656403374291e+002dB,-9.00236740456425e+001°)
1.31825673855640e-001	(-1.01636403377714e+002dB,-9.00237286199346e+001°)
1.32129563418657e-001	(-1.01616403381152e+002dB,-9.00237833200362e+001°)
1.32434153519466e-001	(-1.01596403384606e+002dB,-9.00238381462491e+001°)
1.32739445772973e-001	(-1.01576403388076e+002dB,-9.00238930988345e+001°)
1.33045441797808e-001	(-1.01556403391562e+002dB,-9.00239481781200e+001°)
1.33352143216331e-001	(-1.01536403395064e+002dB,-9.00240033843925e+001°)
1.33659551654643e-001	(-1.01516403398582e+002dB,-9.00240587178682e+001°)
1.33967668742593e-001	(-1.01496403402117e+002dB,-9.00241141789505e+001°)
1.34276496113785e-001	(-1.01476403405668e+002dB,-9.00241697678508e+001°)
1.34586035405594e-001	(-1.01456403409235e+002dB,-9.00242254849364e+001°)
1.34896288259164e-001	(-1.01436403412819e+002dB,-9.00242813304441e+001°)
1.35207256319427e-001	(-1.01416403416419e+002dB,-9.00243373046755e+001°)
1.35518941235103e-001	(-1.01396403420036e+002dB,-9.00243934079522e+001°)
1.35831344658714e-001	(-1.01376403423669e+002dB,-9.00244496405554e+001°)
1.36144468246594e-001	(-1.01356403427320e+002dB,-9.00245060028009e+001°)
1.36458313658891e-001	(-1.01336403430987e+002dB,-9.00245624949493e+001°)
1.36772882559584e-001	(-1.01316403434671e+002dB,-9.00246191173553e+001°)
1.37088176616484e-001	(-1.01296403438372e+002dB,-9.00246758702739e+001°)
1.37404197501250e-001	(-1.01276403442090e+002dB,-9.00247327540092e+001°)
1.37720946889394e-001	(-1.01256403445826e+002dB,-9.00247897689138e+001°)
1.38038426460287e-001	(-1.01236403449578e+002dB,-9.00248469151972e+001°)
1.38356637897177e-001	(-1.01216403453348e+002dB,-9.00249041932500e+001°)
1.38675582887188e-001	(-1.01196403457135e+002dB,-9.00249616033343e+001°)
1.38995263121334e-001	(-1.01176403460940e+002dB,-9.00250191457899e+001°)
1.39315680294529e-001	(-1.01156403464762e+002dB,-9.00250768208585e+001°)
1.39636836105593e-001	(-1.01136403468602e+002dB,-9.00251346289023e+001°)
1.39958732257261e-001	(-1.01116403472460e+002dB,-9.00251925701856e+001°)
1.40281370456195e-001	(-1.01096403476336e+002dB,-9.00252506450350e+001°)
1.40604752412990e-001	(-1.01076403480229e+002dB,-9.00253088537661e+001°)
1.40928879842186e-001	(-1.01056403484140e+002dB,-9.00253671967126e+001°)
1.41253754462274e-001	(-1.01036403488070e+002dB,-9.00254256741258e+001°)
1.41579377995707e-001	(-1.01016403492017e+002dB,-9.00254842863754e+001°)
1.41905752168908e-001	(-1.00996403495983e+002dB,-9.00255430337060e+001°)
1.42232878712281e-001	(-1.00976403499967e+002dB,-9.00256019164658e+001°)
1.42560759360218e-001	(-1.00956403503970e+002dB,-9.00256609349637e+001°)
1.42889395851109e-001	(-1.00936403507991e+002dB,-9.00257200895117e+001°)
1.43218789927353e-001	(-1.00916403512030e+002dB,-9.00257793804398e+001°)
1.43548943335364e-001	(-1.00896403516089e+002dB,-9.00258388080386e+001°)
1.43879857825583e-001	(-1.00876403520165e+002dB,-9.00258983726443e+001°)
1.44211535152486e-001	(-1.00856403524261e+002dB,-9.00259580745542e+001°)
1.44543977074591e-001	(-1.00836403528376e+002dB,-9.00260179140827e+001°)
1.44877185354475e-001	(-1.00816403532509e+002dB,-9.00260778915756e+001°)
1.45211161758773e-001	(-1.00796403536662e+002dB,-9.00261380072973e+001°)
1.45545908058195e-001	(-1.00776403540834e+002dB,-9.00261982616135e+001°)
1.45881426027534e-001	(-1.00756403545025e+002dB,-9.00262586548505e+001°)
1.46217717445671e-001	(-1.00736403549236e+002dB,-9.00263191872821e+001°)
1.46554784095590e-001	(-1.00716403553465e+002dB,-9.00263798592820e+001°)
1.46892627764385e-001	(-1.00696403557715e+002dB,-9.00264406711158e+001°)
1.47231250243271e-001	(-1.00676403561984e+002dB,-9.00265016231488e+001°)
1.47570653327588e-001	(-1.00656403566273e+002dB,-9.00265627156933e+001°)
1.47910838816819e-001	(-1.00636403570581e+002dB,-9.00266239490646e+001°)
1.48251808514594e-001	(-1.00616403574910e+002dB,-9.00266853236078e+001°)
1.48593564228699e-001	(-1.00596403579258e+002dB,-9.00267468396293e+001°)
1.48936107771090e-001	(-1.00576403583626e+002dB,-9.00268084974245e+001°)
1.49279440957898e-001	(-1.00556403588015e+002dB,-9.00268702974136e+001°)
1.49623565609442e-001	(-1.00536403592424e+002dB,-9.00269322398287e+001°)
1.49968483550236e-001	(-1.00516403596853e+002dB,-9.00269943250536e+001°)
1.50314196609001e-001	(-1.00496403601303e+002dB,-9.00270565533928e+001°)
1.50660706618673e-001	(-1.00476403605773e+002dB,-9.00271189251531e+001°)
1.51008015416413e-001	(-1.00456403610264e+002dB,-9.00271814407511e+001°)
1.51356124843619e-001	(-1.00436403614776e+002dB,-9.00272441004172e+001°)
1.51705036745932e-001	(-1.00416403619308e+002dB,-9.00273069045313e+001°)
1.52054752973248e-001	(-1.00396403623861e+002dB,-9.00273698534350e+001°)
1.52405275379728e-001	(-1.00376403628436e+002dB,-9.00274329474850e+001°)
1.52756605823806e-001	(-1.00356403633031e+002dB,-9.00274961869333e+001°)
1.53108746168202e-001	(-1.00336403637648e+002dB,-9.00275595721800e+001°)
1.53461698279928e-001	(-1.00316403642286e+002dB,-9.00276231035470e+001°)
1.53815464030302e-001	(-1.00296403646945e+002dB,-9.00276867813843e+001°)
1.54170045294954e-001	(-1.00276403651626e+002dB,-9.00277506059778e+001°)
1.54525443953840e-001	(-1.00256403656329e+002dB,-9.00278145777329e+001°)
1.54881661891247e-001	(-1.00236403661053e+002dB,-9.00278786969386e+001°)
1.55238700995807e-001	(-1.00216403665799e+002dB,-9.00279429639768e+001°)
1.55596563160506e-001	(-1.00196403670567e+002dB,-9.00280073791393e+001°)
1.55955250282694e-001	(-1.00176403675357e+002dB,-9.00280719427974e+001°)
1.56314764264094e-001	(-1.00156403680169e+002dB,-9.00281366553105e+001°)
1.56675107010813e-001	(-1.00136403685003e+002dB,-9.00282015169873e+001°)
1.57036280433354e-001	(-1.00116403689860e+002dB,-9.00282665281894e+001°)
1.57398286446620e-001	(-1.00096403694739e+002dB,-9.00283316892664e+001°)
1.57761126969933e-001	(-1.00076403699640e+002dB,-9.00283970005305e+001°)
1.58124803927037e-001	(-1.00056403704564e+002dB,-9.00284624623588e+001°)
1.58489319246110e-001	(-1.00036403709511e+002dB,-9.00285280751039e+001°)
1.58854674859776e-001	(-1.00016403714481e+002dB,-9.00285938390932e+001°)
1.59220872705115e-001	(-9.99964037194736e+001dB,-9.00286597547062e+001°)
1.59587914723672e-001	(-9.99764037244893e+001dB,-9.00287258222465e+001°)
1.59955802861465e-001	(-9.99564037295281e+001dB,-9.00287920420949e+001°)
1.60324539069002e-001	(-9.99364037345902e+001dB,-9.00288584145944e+001°)
1.60694125301286e-001	(-9.99164037396756e+001dB,-9.00289249400888e+001°)
1.61064563517825e-001	(-9.98964037447846e+001dB,-9.00289916189599e+001°)
1.61435855682647e-001	(-9.98764037499171e+001dB,-9.00290584515146e+001°)
1.61808003764305e-001	(-9.98564037550733e+001dB,-9.00291254381732e+001°)
1.62181009735891e-001	(-9.98364037602533e+001dB,-9.00291925792182e+001°)
1.62554875575047e-001	(-9.98164037654572e+001dB,-9.00292598750701e+001°)
1.62929603263970e-001	(-9.97964037706851e+001dB,-9.00293273260247e+001°)
1.63305194789432e-001	(-9.97764037759372e+001dB,-9.00293949324653e+001°)
1.63681652142779e-001	(-9.97564037812135e+001dB,-9.00294626947874e+001°)
1.64058977319952e-001	(-9.97364037865142e+001dB,-9.00295306133122e+001°)
1.64437172321491e-001	(-9.97164037918393e+001dB,-9.00295986883732e+001°)
1.64816239152549e-001	(-9.96964037971890e+001dB,-9.00296669204027e+001°)
1.65196179822900e-001	(-9.96764038025634e+001dB,-9.00297353096971e+001°)
1.65576996346951e-001	(-9.96564038079626e+001dB,-9.00298038566512e+001°)
1.65958690743754e-001	(-9.96364038133868e+001dB,-9.00298725616347e+001°)
1.66341265037015e-001	(-9.96164038188359e+001dB,-9.00299414249804e+001°)
1.66724721255104e-001	(-9.95964038243102e+001dB,-9.00300104470696e+001°)
1.67109061431069e-001	(-9.95764038298098e+001dB,-9.00300796282830e+001°)
1.67494287602642e-001	(-9.95564038353348e+001dB,-9.00301489689766e+001°)
1.67880401812254e-001	(-9.95364038408853e+001dB,-9.00302184695418e+001°)
1.68267406107045e-001	(-9.95164038464614e+001dB,-9.00302881302733e+001°)
1.68655302538872e-001	(-9.94964038520632e+001dB,-9.00303579516096e+001°)
1.69044093164324e-001	(-9.94764038576909e+001dB,-9.00304279339280e+001°)
1.69433780044731e-001	(-9.94564038633445e+001dB,-9.00304980775214e+001°)
1.69824365246172e-001	(-9.94364038690243e+001dB,-9.00305683828494e+001°)
1.70215850839493e-001	(-9.94164038747303e+001dB,-9.00306388502390e+001°)
1.70608238900310e-001	(-9.93964038804626e+001dB,-9.00307094800642e+001°)
1.71001531509027e-001	(-9.93764038862214e+001dB,-9.00307802727099e+001°)
1.71395730750840e-001	(-9.93564038920067e+001dB,-9.00308512285715e+001°)
1.71790838715757e-001	(-9.93364038978188e+001dB,-9.00309223479724e+001°)
1.72186857498599e-001	(-9.93164039036577e+001dB,-9.00309936313294e+001°)
1.72583789199018e-001	(-9.92964039095235e+001dB,-9.00310650790226e+001°)
1.72981635921508e-001	(-9.92764039154164e+001dB,-9.00311366913955e+001°)
1.73380399775412e-001	(-9.92564039213365e+001dB,-9.00312084688608e+001°)
1.73780082874935e-001	(-9.92364039272840e+001dB,-9.00312804118059e+001°)
1.74180687339159e-001	(-9.92164039332589e+001dB,-9.00313525205937e+001°)
1.74582215292048e-001	(-9.91964039392613e+001dB,-9.00314247955973e+001°)
1.74984668862463e-001	(-9.91764039452915e+001dB,-9.00314972372228e+001°)
1.75388050184174e-001	(-9.91564039513495e+001dB,-9.00315698458286e+001°)
1.75792361395867e-001	(-9.91364039574355e+001dB,-9.00316426218290e+001°)
1.76197604641161e-001	(-9.91164039635496e+001dB,-9.00317155655904e+001°)
1.76603782068614e-001	(-9.90964039696918e+001dB,-9.00317886775004e+001°)
1.77010895831740e-001	(-9.90764039758625e+001dB,-9.00318619579677e+001°)
1.77418948089014e-001	(-9.90564039820616e+001dB,-9.00319354073531e+001°)
1.77827941003890e-001	(-9.90364039882893e+001dB,-9.00320090260501e+001°)
1.78237876744807e-001	(-9.90164039945458e+001dB,-9.00320828144612e+001°)
1.78648757485203e-001	(-9.89964040008312e+001dB,-9.00321567729755e+001°)
1.79060585403527e-001	(-9.89764040071455e+001dB,-9.00322309019687e+001°)
1.79473362683250e-001	(-9.89564040134891e+001dB,-9.00323052018480e+001°)
1.79887091512876e-001	(-9.89364040198618e+001dB,-9.00323796730187e+001°)
1.80301774085954e-001	(-9.89164040262641e+001dB,-9.00324543158719e+001°)
1.80717412601090e-001	(-9.88964040326958e+001dB,-9.00325291307744e+001°)
1.81134009261958e-001	(-9.88764040391573e+001dB,-9.00326041181576e+001°)
1.81551566277311e-001	(-9.88564040456485e+001dB,-9.00326792783832e+001°)
1.81970085860996e-001	(-9.88364040521698e+001dB,-9.00327546118887e+001°)
1.82389570231961e-001	(-9.88164040587211e+001dB,-9.00328301190531e+001°)
1.82810021614272e-001	(-9.87964040653027e+001dB,-9.00329058002640e+001°)
1.83231442237119e-001	(-9.87764040719147e+001dB,-9.00329816559504e+001°)
1.83653834334832e-001	(-9.87564040785571e+001dB,-9.00330576865054e+001°)
1.84077200146893e-001	(-9.87364040852303e+001dB,-9.00331338923412e+001°)
1.84501541917945e-001	(-9.87164040919342e+001dB,-9.00332102738234e+001°)
1.84926861897805e-001	(-9.86964040986691e+001dB,-9.00332868313913e+001°)
1.85353162341479e-001	(-9.86764041054351e+001dB,-9.00333635654482e+001°)
1.85780445509167e-001	(-9.86564041122323e+001dB,-9.00334404763946e+001°)
1.86208713666284e-001	(-9.86364041190608e+001dB,-9.00335175646384e+001°)
1.86637969083464e-001	(-9.86164041259209e+001dB,-9.00335948305846e+001°)
1.87068214036577e-001	(-9.85964041328127e+001dB,-9.00336722746459e+001°)
